T40F8 000:047.010   SEGGER J-Link V6.70e Log File
T40F8 000:047.154   DLL Compiled: Apr 17 2020 17:55:05
T40F8 000:047.160   Logging started @ 2025-07-19 16:00
T40F8 000:047.169 JLINK_SetWarnOutHandler(...)
T40F8 000:047.177 - 0.011ms
T40F8 000:047.193 JLINK_OpenEx(...)
T40F8 000:049.904   Firmware: J-Link ARM-OB STM32 compiled Aug 22 2012 19:52:04
T40F8 000:054.440   Hardware: V7.00
T40F8 000:054.476   S/N: 20090928
T40F8 000:054.498   OEM: SEGGER
T40F8 000:054.524   Feature(s): RDI,FlashDL,FlashBP,JFlash,GDB
T40F8 000:056.827   TELNET listener socket opened on port 19021
T40F8 000:056.954   WEBSRV Starting webserver
T40F8 000:057.195   WEBSRV Webserver running on local port 19080
T40F8 000:057.217 - 10.030ms returns "O.K."
T40F8 000:057.247 JLINK_GetEmuCaps()
T40F8 000:057.258 - 0.016ms returns 0x88EA5833
T40F8 000:057.272 JLINK_TIF_GetAvailable(...)
T40F8 000:057.935 - 0.677ms
T40F8 000:057.969 JLINK_SetErrorOutHandler(...)
T40F8 000:057.981 - 0.017ms
T40F8 000:058.018 JLINK_ExecCommand("ProjectFile = "F:\MCUtmp\zzarc_vf_07\zzarc_vf_07\msp\MDK-ARM\JLinkSettings.ini"", ...). 
T40F8 000:063.695   Ref file found at: D:\Keil_v5\ARM\Segger\JLinkDevices.ref
T40F8 000:063.789   REF file references invalid XML file: D:\Program Files (x86)\SEGGER\JLink\JLinkDevices.xml
T40F8 000:064.012 - 6.012ms returns 0x00
T40F8 000:064.052 JLINK_ExecCommand("Device = STM32F407ZGTx", ...). 
T40F8 000:064.444   Device "STM32F407ZG" selected.
T40F8 000:064.786 - 0.726ms returns 0x00
T40F8 000:064.799 JLINK_ExecCommand("DisableConnectionTimeout", ...). 
T40F8 000:064.810 - 0.006ms returns 0x01
T40F8 000:064.819 JLINK_GetHardwareVersion()
T40F8 000:064.825 - 0.009ms returns 0x11170
T40F8 000:064.832 JLINK_GetDLLVersion()  returns 67005
T40F8 000:064.845 JLINK_GetFirmwareString(...)
T40F8 000:064.851 - 0.009ms
T40F8 000:064.873 JLINK_GetDLLVersion()  returns 67005
T40F8 000:064.880 JLINK_GetCompileDateTime()
T40F8 000:064.886 - 0.008ms
T40F8 000:064.897 JLINK_GetFirmwareString(...)
T40F8 000:064.903 - 0.008ms
T40F8 000:064.913 JLINK_GetHardwareVersion()
T40F8 000:064.919 - 0.008ms returns 0x11170
T40F8 000:064.940 JLINK_TIF_Select(JLINKARM_TIF_SWD)
T40F8 000:066.977 - 2.051ms returns 0x00
T40F8 000:067.017 JLINK_SetSpeed(5000)
T40F8 000:067.601 - 0.593ms
T40F8 000:067.622 JLINK_GetId()
T40F8 000:070.536   Found SW-DP with ID 0x2BA01477
T40F8 000:104.516   Found SW-DP with ID 0x2BA01477
T40F8 000:113.583   Old FW that does not support reading DPIDR via DAP jobs
T40F8 000:124.903   Unknown DP version. Assuming DPv0
T40F8 000:124.946   Scanning AP map to find all available APs
T40F8 000:132.475   AP[1]: Stopped AP scan as end of AP map has been reached
T40F8 000:132.497   AP[0]: AHB-AP (IDR: 0x24770011)
T40F8 000:132.511   Iterating through AP map to find AHB-AP to use
T40F8 000:145.348   AP[0]: Core found
T40F8 000:145.385   AP[0]: AHB-AP ROM base: 0xE00FF000
T40F8 000:151.876   CPUID register: 0x410FC241. Implementer code: 0x41 (ARM)
T40F8 000:151.907   Found Cortex-M4 r0p1, Little endian.
T40F8 000:254.988    -- Max. mem block: 0x00002C18
T40F8 000:255.072   CPU_ReadMem(4 bytes @ 0xE000EDF0)
T40F8 000:256.698   CPU_WriteMem(4 bytes @ 0xE000EDF0)
T40F8 000:257.685   CPU_ReadMem(4 bytes @ 0xE0002000)
T40F8 000:258.578   FPUnit: 6 code (BP) slots and 2 literal slots
T40F8 000:258.607   CPU_ReadMem(4 bytes @ 0xE000EDFC)
T40F8 000:259.543   CPU_WriteMem(4 bytes @ 0xE000EDFC)
T40F8 000:260.473   CPU_ReadMem(4 bytes @ 0xE0001000)
T40F8 000:261.442   CPU_WriteMem(4 bytes @ 0xE0001000)
T40F8 000:262.325   CPU_ReadMem(4 bytes @ 0xE000ED88)
T40F8 000:263.195   CPU_WriteMem(4 bytes @ 0xE000ED88)
T40F8 000:264.063   CPU_ReadMem(4 bytes @ 0xE000ED88)
T40F8 000:264.927   CPU_WriteMem(4 bytes @ 0xE000ED88)
T40F8 000:265.840   CoreSight components:
T40F8 000:265.872   ROMTbl[0] @ E00FF000
T40F8 000:265.888   CPU_ReadMem(64 bytes @ 0xE00FF000)
T40F8 000:267.435   CPU_ReadMem(32 bytes @ 0xE000EFE0)
T40F8 000:268.589   ROMTbl[0][0]: E000E000, CID: B105E00D, PID: 000BB00C SCS-M7
T40F8 000:268.608   CPU_ReadMem(32 bytes @ 0xE0001FE0)
T40F8 000:269.833   ROMTbl[0][1]: E0001000, CID: B105E00D, PID: 003BB002 DWT
T40F8 000:269.852   CPU_ReadMem(32 bytes @ 0xE0002FE0)
T40F8 000:271.102   ROMTbl[0][2]: E0002000, CID: B105E00D, PID: 002BB003 FPB
T40F8 000:271.136   CPU_ReadMem(32 bytes @ 0xE0000FE0)
T40F8 000:272.336   ROMTbl[0][3]: E0000000, CID: B105E00D, PID: 003BB001 ITM
T40F8 000:272.360   CPU_ReadMem(32 bytes @ 0xE0040FE0)
T40F8 000:273.580   ROMTbl[0][4]: E0040000, CID: B105900D, PID: 000BB9A1 TPIU
T40F8 000:273.592   CPU_ReadMem(32 bytes @ 0xE0041FE0)
T40F8 000:274.705   ROMTbl[0][5]: E0041000, CID: B105900D, PID: 000BB925 ETM
T40F8 000:276.072 - 208.460ms   returns 0x2BA01477
T40F8 000:276.103 JLINK_GetDLLVersion()  returns 67005
T40F8 000:276.120 JLINK_CORE_GetFound()
T40F8 000:276.130 - 0.015ms returns 0xE0000FF
T40F8 000:276.145 JLINK_GetDebugInfo(0x100 = JLINKARM_ROM_TABLE_ADDR_INDEX)
T40F8 000:276.161   Value=0xE00FF000
T40F8 000:276.176 - 0.036ms returns 0x00
T40F8 000:276.239 JLINK_GetDebugInfo(0x100 = JLINKARM_ROM_TABLE_ADDR_INDEX)
T40F8 000:276.252   Value=0xE00FF000
T40F8 000:276.267 - 0.032ms returns 0x00
T40F8 000:276.279 JLINK_GetDebugInfo(0x101 = JLINKARM_DEBUG_INFO_ETM_ADDR_INDEX)
T40F8 000:276.290   Value=0xE0041000
T40F8 000:276.305 - 0.035ms returns 0x00
T40F8 000:276.331   JLINK_ReadMemEx(0xE0041FD0, 0x0020 Bytes, ..., Flags = 0x02000004)
T40F8 000:276.364   CPU_ReadMem(32 bytes @ 0xE0041FD0)
T40F8 000:277.574   Data:  04 00 00 00 00 00 00 00 00 00 00 00 00 00 00 00 ...
T40F8 000:277.586 - 1.262ms returns 0x20
T40F8 000:277.595 JLINK_GetDebugInfo(0x102 = JLINKARM_DEBUG_INFO_MTB_ADDR_INDEX)
T40F8 000:277.602   Value=0x00000000
T40F8 000:277.612 - 0.020ms returns 0x00
T40F8 000:277.621 JLINK_GetDebugInfo(0x103 = JLINKARM_DEBUG_INFO_TPIU_ADDR_INDEX)
T40F8 000:277.628   Value=0xE0040000
T40F8 000:277.637 - 0.019ms returns 0x00
T40F8 000:277.645 JLINK_GetDebugInfo(0x104 = JLINKARM_DEBUG_INFO_ITM_ADDR_INDEX)
T40F8 000:277.652   Value=0xE0000000
T40F8 000:277.662 - 0.019ms returns 0x00
T40F8 000:277.670 JLINK_GetDebugInfo(0x105 = JLINKARM_DEBUG_INFO_DWT_ADDR_INDEX)
T40F8 000:277.677   Value=0xE0001000
T40F8 000:277.686 - 0.019ms returns 0x00
T40F8 000:277.694 JLINK_GetDebugInfo(0x106 = JLINKARM_DEBUG_INFO_FPB_ADDR_INDEX)
T40F8 000:277.701   Value=0xE0002000
T40F8 000:277.711 - 0.019ms returns 0x00
T40F8 000:277.719 JLINK_GetDebugInfo(0x107 = JLINKARM_DEBUG_INFO_NVIC_ADDR_INDEX)
T40F8 000:277.725   Value=0xE000E000
T40F8 000:277.735 - 0.019ms returns 0x00
T40F8 000:277.743 JLINK_GetDebugInfo(0x10C = JLINKARM_DEBUG_INFO_DBG_ADDR_INDEX)
T40F8 000:277.750   Value=0xE000EDF0
T40F8 000:277.760 - 0.019ms returns 0x00
T40F8 000:277.768 JLINK_GetDebugInfo(0x01 = Unknown)
T40F8 000:277.777   Value=0x00000001
T40F8 000:277.786 - 0.022ms returns 0x00
T40F8 000:277.797 JLINK_ReadMemU32(0xE000ED00, 0x0001 Items, ...)
T40F8 000:277.807   CPU_ReadMem(4 bytes @ 0xE000ED00)
T40F8 000:278.670   Data:  41 C2 0F 41
T40F8 000:278.695    - CPUID
T40F8 000:278.710 - 0.918ms returns 1
T40F8 000:278.724 JLINK_GetDebugInfo(0x10F = JLINKARM_DEBUG_INFO_HAS_CORTEX_M_SECURITY_EXT_INDEX)
T40F8 000:278.735   Value=0x00000000
T40F8 000:278.750 - 0.030ms returns 0x00
T40F8 000:278.766 JLINK_SetResetType(JLINKARM_CM3_RESET_TYPE_NORMAL)
T40F8 000:278.776 - 0.015ms returns JLINKARM_CM3_RESET_TYPE_NORMAL
T40F8 000:278.789 JLINK_Reset()
T40F8 000:278.813   CPU is running
T40F8 000:278.830   CPU_WriteMem(4 bytes @ 0xE000EDF0)
T40F8 000:279.694   CPU is running
T40F8 000:279.720   CPU_WriteMem(4 bytes @ 0xE000EDFC)
T40F8 000:280.704   Reset: Halt core after reset via DEMCR.VC_CORERESET.
T40F8 000:282.094   Reset: Reset device via AIRCR.SYSRESETREQ.
T40F8 000:282.113   CPU is running
T40F8 000:282.129   CPU_WriteMem(4 bytes @ 0xE000ED0C)
T40F8 000:336.500   CPU_ReadMem(4 bytes @ 0xE000EDF0)
T40F8 000:337.454   CPU_ReadMem(4 bytes @ 0xE000EDF0)
T40F8 000:338.456   CPU is running
T40F8 000:338.494   CPU_WriteMem(4 bytes @ 0xE000EDF0)
T40F8 000:339.457   CPU is running
T40F8 000:339.477   CPU_WriteMem(4 bytes @ 0xE000EDFC)
T40F8 000:346.133   CPU_ReadMem(4 bytes @ 0xE000EDF0)
T40F8 000:351.051   CPU_WriteMem(4 bytes @ 0xE0002000)
T40F8 000:351.952   CPU_ReadMem(4 bytes @ 0xE000EDFC)
T40F8 000:352.792   CPU_ReadMem(4 bytes @ 0xE0001000)
T40F8 000:353.675 - 74.894ms
T40F8 000:353.753 JLINK_ReadReg(R15 (PC))
T40F8 000:353.771 - 0.023ms returns 0x08000320
T40F8 000:353.785 JLINK_ReadReg(XPSR)
T40F8 000:353.796 - 0.016ms returns 0x01000000
T40F8 000:353.809 JLINK_Halt()
T40F8 000:353.820 - 0.015ms returns 0x00
T40F8 000:353.833 JLINK_ReadMemU32(0xE000EDF0, 0x0001 Items, ...)
T40F8 000:353.849   CPU_ReadMem(4 bytes @ 0xE000EDF0)
T40F8 000:354.805   Data:  03 00 03 00
T40F8 000:354.833    - DHCSR
T40F8 000:354.848 - 1.020ms returns 1
T40F8 000:354.864 JLINK_WriteU32(0xE000EDF0, 0xA05F0003)
T40F8 000:354.876    - DHCSR
T40F8 000:354.909   CPU_WriteMem(4 bytes @ 0xE000EDF0)
T40F8 000:355.830 - 0.975ms returns 0
T40F8 000:355.849 JLINK_WriteU32(0xE000EDFC, 0x01000000)
T40F8 000:355.861    - DEMCR
T40F8 000:355.883   CPU_WriteMem(4 bytes @ 0xE000EDFC)
T40F8 000:356.820 - 0.979ms returns 0
T40F8 000:356.890 JLINK_GetHWStatus(...)
T40F8 000:357.516 - 0.634ms returns 0x00
T40F8 000:357.560 JLINK_GetNumBPUnits(Type = 0xFFFFFF00)
T40F8 000:357.572 - 0.018ms returns 0x06
T40F8 000:357.586 JLINK_GetNumBPUnits(Type = 0xF0)
T40F8 000:357.598 - 0.016ms returns 0x2000
T40F8 000:357.611 JLINK_GetNumWPUnits()
T40F8 000:357.622 - 0.016ms returns 0x04
T40F8 000:357.651 JLINK_GetSpeed()
T40F8 000:357.663 - 0.020ms returns 0xFA0
T40F8 000:357.688 JLINK_ReadMemU32(0xE000E004, 0x0001 Items, ...)
T40F8 000:357.704   CPU_ReadMem(4 bytes @ 0xE000E004)
T40F8 000:358.553   Data:  02 00 00 00
T40F8 000:358.572 - 0.888ms returns 1
T40F8 000:358.586 JLINK_ReadMemU32(0xE000E004, 0x0001 Items, ...)
T40F8 000:358.600   CPU_ReadMem(4 bytes @ 0xE000E004)
T40F8 000:359.544   Data:  02 00 00 00
T40F8 000:359.567 - 0.986ms returns 1
T40F8 000:359.584 JLINK_WriteMemEx(0xE0001000, 0x001C Bytes, ..., Flags = 0x02000004)
T40F8 000:359.597   Data:  01 00 00 00 00 00 00 00 00 00 00 00 00 00 00 00 ...
T40F8 000:359.945   CPU_WriteMem(28 bytes @ 0xE0001000)
T40F8 000:361.100 - 1.523ms returns 0x1C
T40F8 000:361.122 JLINK_ReadReg(R15 (PC))
T40F8 000:361.136 - 0.019ms returns 0x08000320
T40F8 000:361.149 JLINK_ReadReg(XPSR)
T40F8 000:361.161 - 0.017ms returns 0x01000000
T40F8 000:365.348   JLINK_ReadMemEx(0xE0001004, 0x0004 Bytes, ..., Flags = 0x02000000)
T40F8 000:365.370   Data:  00 00 00 00
T40F8 000:365.380    - DWT_CYCCNT
T40F8 000:365.390 - 0.046ms returns 0x04
T40F8 000:439.616 JLINK_SetResetType(JLINKARM_CM3_RESET_TYPE_NORMAL)
T40F8 000:439.651 - 0.039ms returns JLINKARM_CM3_RESET_TYPE_NORMAL
T40F8 000:439.661 JLINK_Reset()
T40F8 000:439.680   CPU_WriteMem(4 bytes @ 0xE000EDF0)
T40F8 000:440.610   CPU_WriteMem(4 bytes @ 0xE000EDFC)
T40F8 000:441.590   Reset: Halt core after reset via DEMCR.VC_CORERESET.
T40F8 000:442.980   Reset: Reset device via AIRCR.SYSRESETREQ.
T40F8 000:443.002   CPU_WriteMem(4 bytes @ 0xE000ED0C)
T40F8 000:498.144   CPU_ReadMem(4 bytes @ 0xE000EDF0)
T40F8 000:499.078   CPU_ReadMem(4 bytes @ 0xE000EDF0)
T40F8 000:500.048   CPU_WriteMem(4 bytes @ 0xE000EDF0)
T40F8 000:501.142   CPU_WriteMem(4 bytes @ 0xE000EDFC)
T40F8 000:507.205   CPU_ReadMem(4 bytes @ 0xE000EDF0)
T40F8 000:512.163   CPU_WriteMem(4 bytes @ 0xE0002000)
T40F8 000:513.064   CPU_ReadMem(4 bytes @ 0xE000EDFC)
T40F8 000:513.916   CPU_ReadMem(4 bytes @ 0xE0001000)
T40F8 000:514.792 - 75.139ms
T40F8 000:514.869 JLINK_ReadReg(R15 (PC))
T40F8 000:514.886 - 0.022ms returns 0x08000320
T40F8 000:514.899 JLINK_ReadReg(XPSR)
T40F8 000:514.910 - 0.016ms returns 0x01000000
T40F8 000:515.721   JLINK_ReadMemEx(0x08000320, 0x003C Bytes, ..., Flags = 0x02000000)
T40F8 000:515.753   CPU_ReadMem(128 bytes @ 0x08000300)
T40F8 000:517.917    -- Updating C cache (128 bytes @ 0x08000300)
T40F8 000:517.947    -- Read from C cache (60 bytes @ 0x08000320)
T40F8 000:517.965   Data:  09 48 80 47 09 48 00 47 FE E7 FE E7 FE E7 FE E7 ...
T40F8 000:517.990 - 2.275ms returns 0x3C
T40F8 000:518.009   JLINK_ReadMemEx(0x08000320, 0x0002 Bytes, ..., Flags = 0x02000000)
T40F8 000:518.028    -- Read from C cache (2 bytes @ 0x08000320)
T40F8 000:518.044   Data:  09 48
T40F8 000:518.061 - 0.066ms returns 0x02
T40F8 000:518.202   JLINK_ReadMemEx(0x08000322, 0x0002 Bytes, ..., Flags = 0x02000000)
T40F8 000:518.221    -- Read from C cache (2 bytes @ 0x08000322)
T40F8 000:518.237   Data:  80 47
T40F8 000:518.254 - 0.058ms returns 0x02
T40F8 000:518.280   JLINK_ReadMemEx(0x08000322, 0x0002 Bytes, ..., Flags = 0x02000000)
T40F8 000:518.297    -- Read from C cache (2 bytes @ 0x08000322)
T40F8 000:518.314   Data:  80 47
T40F8 000:518.330 - 0.056ms returns 0x02
T40F8 000:518.344   JLINK_ReadMemEx(0x08000324, 0x003C Bytes, ..., Flags = 0x02000000)
T40F8 000:518.361    -- Read from C cache (60 bytes @ 0x08000324)
T40F8 000:518.379   Data:  09 48 00 47 FE E7 FE E7 FE E7 FE E7 FE E7 FE E7 ...
T40F8 000:518.395 - 0.056ms returns 0x3C
T40F8 000:518.409   JLINK_ReadMemEx(0x08000324, 0x0002 Bytes, ..., Flags = 0x02000000)
T40F8 000:518.425    -- Read from C cache (2 bytes @ 0x08000324)
T40F8 000:518.442   Data:  09 48
T40F8 000:518.456 - 0.050ms returns 0x02
T40F8 000:711.313   JLINK_ReadMemEx(0x40003800, 0x0020 Bytes, ..., Flags = 0x02000004)
T40F8 000:711.351   CPU_ReadMem(32 bytes @ 0x40003800)
T40F8 000:712.598   Data:  00 00 00 00 00 00 00 00 00 00 00 00 00 00 00 00 ...
T40F8 000:712.626 - 1.320ms returns 0x20
T40F8 000:712.647   JLINK_ReadMemEx(0x40003820, 0x0004 Bytes, ..., Flags = 0x02000004)
T40F8 000:712.671   CPU_ReadMem(4 bytes @ 0x40003820)
T40F8 000:713.554   Data:  00 00 00 00
T40F8 000:713.572 - 0.931ms returns 0x04
T40F8 002:738.574   JLINK_ReadMemEx(0x08000320, 0x003C Bytes, ..., Flags = 0x02000000)
T40F8 002:738.611    -- Read from C cache (60 bytes @ 0x08000320)
T40F8 002:738.620   Data:  09 48 80 47 09 48 00 47 FE E7 FE E7 FE E7 FE E7 ...
T40F8 002:738.629 - 0.059ms returns 0x3C
T40F8 002:738.637   JLINK_ReadMemEx(0x08000320, 0x0002 Bytes, ..., Flags = 0x02000000)
T40F8 002:738.646    -- Read from C cache (2 bytes @ 0x08000320)
T40F8 002:738.654   Data:  09 48
T40F8 002:738.666 - 0.031ms returns 0x02
T40F8 002:738.674   JLINK_ReadMemEx(0x08000322, 0x0002 Bytes, ..., Flags = 0x02000000)
T40F8 002:738.682    -- Read from C cache (2 bytes @ 0x08000322)
T40F8 002:738.691   Data:  80 47
T40F8 002:738.699 - 0.028ms returns 0x02
T40F8 002:738.712   JLINK_ReadMemEx(0x08000322, 0x0002 Bytes, ..., Flags = 0x02000000)
T40F8 002:738.721    -- Read from C cache (2 bytes @ 0x08000322)
T40F8 002:738.729   Data:  80 47
T40F8 002:738.737 - 0.028ms returns 0x02
T40F8 002:738.744   JLINK_ReadMemEx(0x08000324, 0x003C Bytes, ..., Flags = 0x02000000)
T40F8 002:738.753    -- Read from C cache (60 bytes @ 0x08000324)
T40F8 002:738.761   Data:  09 48 00 47 FE E7 FE E7 FE E7 FE E7 FE E7 FE E7 ...
T40F8 002:738.770 - 0.028ms returns 0x3C
T40F8 002:738.777   JLINK_ReadMemEx(0x08000324, 0x0002 Bytes, ..., Flags = 0x02000000)
T40F8 002:738.785    -- Read from C cache (2 bytes @ 0x08000324)
T40F8 002:738.794   Data:  09 48
T40F8 002:738.802 - 0.028ms returns 0x02
T40F8 002:738.811   JLINK_ReadMemEx(0x08000324, 0x003C Bytes, ..., Flags = 0x02000000)
T40F8 002:738.820    -- Read from C cache (60 bytes @ 0x08000324)
T40F8 002:738.828   Data:  09 48 00 47 FE E7 FE E7 FE E7 FE E7 FE E7 FE E7 ...
T40F8 002:738.836 - 0.028ms returns 0x3C
T40F8 002:738.843   JLINK_ReadMemEx(0x08000324, 0x0002 Bytes, ..., Flags = 0x02000000)
T40F8 002:738.852    -- Read from C cache (2 bytes @ 0x08000324)
T40F8 002:738.864   Data:  09 48
T40F8 002:738.872 - 0.031ms returns 0x02
T40F8 002:738.879   JLINK_ReadMemEx(0x08000326, 0x0002 Bytes, ..., Flags = 0x02000000)
T40F8 002:738.887    -- Read from C cache (2 bytes @ 0x08000326)
T40F8 002:738.896   Data:  00 47
T40F8 002:738.904 - 0.027ms returns 0x02
T40F8 003:088.106 JLINK_ReadReg(R0)
T40F8 003:089.205 - 1.117ms returns 0x00000000
T40F8 003:089.235 JLINK_ReadReg(R1)
T40F8 003:089.322 - 0.098ms returns 0x00000000
T40F8 003:089.342 JLINK_ReadReg(R2)
T40F8 003:089.353 - 0.016ms returns 0x00000000
T40F8 003:089.366 JLINK_ReadReg(R3)
T40F8 003:089.376 - 0.015ms returns 0x00000000
T40F8 003:089.389 JLINK_ReadReg(R4)
T40F8 003:089.399 - 0.015ms returns 0x00000000
T40F8 003:089.412 JLINK_ReadReg(R5)
T40F8 003:089.422 - 0.015ms returns 0x00000000
T40F8 003:089.435 JLINK_ReadReg(R6)
T40F8 003:089.446 - 0.015ms returns 0x00000000
T40F8 003:089.458 JLINK_ReadReg(R7)
T40F8 003:089.469 - 0.016ms returns 0x00000000
T40F8 003:089.482 JLINK_ReadReg(R8)
T40F8 003:089.493 - 0.016ms returns 0x00000000
T40F8 003:089.505 JLINK_ReadReg(R9)
T40F8 003:089.516 - 0.016ms returns 0x00000000
T40F8 003:089.529 JLINK_ReadReg(R10)
T40F8 003:089.539 - 0.016ms returns 0x00000000
T40F8 003:089.552 JLINK_ReadReg(R11)
T40F8 003:089.563 - 0.016ms returns 0x00000000
T40F8 003:089.575 JLINK_ReadReg(R12)
T40F8 003:089.586 - 0.015ms returns 0x00000000
T40F8 003:089.599 JLINK_ReadReg(R13 (SP))
T40F8 003:089.610 - 0.016ms returns 0x20004870
T40F8 003:089.623 JLINK_ReadReg(R14)
T40F8 003:089.634 - 0.015ms returns 0xFFFFFFFF
T40F8 003:089.646 JLINK_ReadReg(R15 (PC))
T40F8 003:089.657 - 0.016ms returns 0x08000320
T40F8 003:089.670 JLINK_ReadReg(XPSR)
T40F8 003:089.681 - 0.016ms returns 0x01000000
T40F8 003:089.698 JLINK_ReadReg(MSP)
T40F8 003:089.708 - 0.016ms returns 0x20004870
T40F8 003:089.721 JLINK_ReadReg(PSP)
T40F8 003:089.732 - 0.016ms returns 0x00000000
T40F8 003:089.745 JLINK_ReadReg(CFBP)
T40F8 003:089.756 - 0.016ms returns 0x00000000
T40F8 003:089.769 JLINK_ReadReg(FPSCR)
T40F8 003:095.668 - 5.909ms returns 0x00000000
T40F8 003:095.696 JLINK_ReadReg(FPS0)
T40F8 003:095.709 - 0.018ms returns 0x00000000
T40F8 003:095.722 JLINK_ReadReg(FPS1)
T40F8 003:095.733 - 0.016ms returns 0x00000000
T40F8 003:095.749 JLINK_ReadReg(FPS2)
T40F8 003:095.760 - 0.016ms returns 0x00000000
T40F8 003:095.775 JLINK_ReadReg(FPS3)
T40F8 003:095.786 - 0.016ms returns 0x00000000
T40F8 003:095.801 JLINK_ReadReg(FPS4)
T40F8 003:095.812 - 0.017ms returns 0x00000000
T40F8 003:095.828 JLINK_ReadReg(FPS5)
T40F8 003:095.839 - 0.016ms returns 0x00000000
T40F8 003:095.854 JLINK_ReadReg(FPS6)
T40F8 003:095.867 - 0.018ms returns 0x00000000
T40F8 003:095.882 JLINK_ReadReg(FPS7)
T40F8 003:095.893 - 0.016ms returns 0x00000000
T40F8 003:095.908 JLINK_ReadReg(FPS8)
T40F8 003:095.919 - 0.016ms returns 0x00000000
T40F8 003:095.933 JLINK_ReadReg(FPS9)
T40F8 003:095.944 - 0.016ms returns 0x00000000
T40F8 003:095.959 JLINK_ReadReg(FPS10)
T40F8 003:095.970 - 0.016ms returns 0x00000000
T40F8 003:095.985 JLINK_ReadReg(FPS11)
T40F8 003:095.995 - 0.015ms returns 0x00000000
T40F8 003:096.010 JLINK_ReadReg(FPS12)
T40F8 003:096.021 - 0.016ms returns 0x00000000
T40F8 003:096.035 JLINK_ReadReg(FPS13)
T40F8 003:096.046 - 0.016ms returns 0x00000000
T40F8 003:096.061 JLINK_ReadReg(FPS14)
T40F8 003:096.071 - 0.015ms returns 0x00000000
T40F8 003:096.086 JLINK_ReadReg(FPS15)
T40F8 003:096.097 - 0.016ms returns 0x00000000
T40F8 003:096.112 JLINK_ReadReg(FPS16)
T40F8 003:096.122 - 0.016ms returns 0x00000000
T40F8 003:096.137 JLINK_ReadReg(FPS17)
T40F8 003:096.148 - 0.016ms returns 0x00000000
T40F8 003:096.163 JLINK_ReadReg(FPS18)
T40F8 003:096.174 - 0.015ms returns 0x00000000
T40F8 003:096.192 JLINK_ReadReg(FPS19)
T40F8 003:096.203 - 0.016ms returns 0x00000000
T40F8 003:096.218 JLINK_ReadReg(FPS20)
T40F8 003:096.229 - 0.016ms returns 0x00000000
T40F8 003:096.244 JLINK_ReadReg(FPS21)
T40F8 003:096.254 - 0.016ms returns 0x00000000
T40F8 003:096.269 JLINK_ReadReg(FPS22)
T40F8 003:096.280 - 0.016ms returns 0x00000000
T40F8 003:096.295 JLINK_ReadReg(FPS23)
T40F8 003:096.306 - 0.016ms returns 0x00000000
T40F8 003:096.320 JLINK_ReadReg(FPS24)
T40F8 003:096.331 - 0.016ms returns 0x00000000
T40F8 003:096.346 JLINK_ReadReg(FPS25)
T40F8 003:096.357 - 0.016ms returns 0x00000000
T40F8 003:096.371 JLINK_ReadReg(FPS26)
T40F8 003:096.382 - 0.016ms returns 0x00000000
T40F8 003:096.397 JLINK_ReadReg(FPS27)
T40F8 003:096.412 - 0.021ms returns 0x00000000
T40F8 003:096.428 JLINK_ReadReg(FPS28)
T40F8 003:096.439 - 0.016ms returns 0x00000000
T40F8 003:096.454 JLINK_ReadReg(FPS29)
T40F8 003:096.465 - 0.016ms returns 0x00000000
T40F8 003:096.480 JLINK_ReadReg(FPS30)
T40F8 003:096.491 - 0.015ms returns 0x00000000
T40F8 003:096.505 JLINK_ReadReg(FPS31)
T40F8 003:096.516 - 0.015ms returns 0x00000000
T40F8 003:096.586   JLINK_ReadMemEx(0x2000171C, 0x0002 Bytes, ..., Flags = 0x02000000)
T40F8 003:096.610   CPU_ReadMem(64 bytes @ 0x20001700)
T40F8 003:098.136    -- Updating C cache (64 bytes @ 0x20001700)
T40F8 003:098.147    -- Read from C cache (2 bytes @ 0x2000171C)
T40F8 003:098.156   Data:  00 00
T40F8 003:098.164 - 1.583ms returns 0x02
T40F8 003:101.473   JLINK_ReadMemEx(0x2000171C, 0x0002 Bytes, ..., Flags = 0x02000000)
T40F8 003:101.493    -- Read from C cache (2 bytes @ 0x2000171C)
T40F8 003:101.502   Data:  00 00
T40F8 003:101.511 - 0.041ms returns 0x02
T40F8 003:101.533   JLINK_ReadMemEx(0x2000171C, 0x0002 Bytes, ..., Flags = 0x02000000)
T40F8 003:101.544    -- Read from C cache (2 bytes @ 0x2000171C)
T40F8 003:101.552   Data:  00 00
T40F8 003:101.561 - 0.030ms returns 0x02
T199C 003:144.698   JLINK_ReadMemEx(0x08000320, 0x0002 Bytes, ..., Flags = 0x02000000)
T199C 003:144.742    -- Read from C cache (2 bytes @ 0x08000320)
T199C 003:144.758   Data:  09 48
T199C 003:144.774 - 0.083ms returns 0x02
T199C 003:144.794   JLINK_SetBPEx(Addr = 0x08009BB4, Type = 0xFFFFFFF2)
T199C 003:144.815 - 0.026ms returns 0x00000001
T199C 003:144.834 JLINK_Go()
T199C 003:144.881   CPU_WriteMem(4 bytes @ 0xE0002000)
T199C 003:145.898   CPU_ReadMem(4 bytes @ 0xE0001000)
T199C 003:146.821   CPU_WriteMem(4 bytes @ 0xE0002008)
T199C 003:146.836   CPU_WriteMem(4 bytes @ 0xE000200C)
T199C 003:146.845   CPU_WriteMem(4 bytes @ 0xE0002010)
T199C 003:146.854   CPU_WriteMem(4 bytes @ 0xE0002014)
T199C 003:146.865   CPU_WriteMem(4 bytes @ 0xE0002018)
T199C 003:146.874   CPU_WriteMem(4 bytes @ 0xE000201C)
T199C 003:149.706   CPU_WriteMem(4 bytes @ 0xE0001004)
T199C 003:151.898 - 7.079ms
T199C 003:252.039 JLINK_IsHalted()
T199C 003:256.299 - 4.272ms returns TRUE
T199C 003:256.326 JLINK_Halt()
T199C 003:256.333 - 0.010ms returns 0x00
T199C 003:256.343 JLINK_IsHalted()
T199C 003:256.349 - 0.009ms returns TRUE
T199C 003:256.356 JLINK_IsHalted()
T199C 003:256.362 - 0.008ms returns TRUE
T199C 003:256.371 JLINK_IsHalted()
T199C 003:256.376 - 0.008ms returns TRUE
T199C 003:256.387 JLINK_ReadReg(R15 (PC))
T199C 003:256.396 - 0.011ms returns 0x08001864
T199C 003:256.404 JLINK_ReadReg(XPSR)
T199C 003:256.411 - 0.010ms returns 0x01000000
T199C 003:256.424 JLINK_ClrBPEx(BPHandle = 0x00000001)
T199C 003:256.431 - 0.009ms returns 0x00
T199C 003:256.442 JLINK_ReadMemU32(0xE000ED30, 0x0001 Items, ...)
T199C 003:256.454   CPU_ReadMem(4 bytes @ 0xE000ED30)
T199C 003:257.296   Data:  03 00 00 00
T199C 003:257.307 - 0.867ms returns 1
T199C 003:257.319 JLINK_ReadMemU32(0xE0001028, 0x0001 Items, ...)
T199C 003:257.328   CPU_ReadMem(4 bytes @ 0xE0001028)
T199C 003:258.191   Data:  00 00 00 00
T199C 003:258.228    - DWT_FUNC[0]
T199C 003:258.245 - 0.931ms returns 1
T199C 003:258.269 JLINK_ReadMemU32(0xE0001038, 0x0001 Items, ...)
T199C 003:258.288   CPU_ReadMem(4 bytes @ 0xE0001038)
T199C 003:259.169   Data:  00 02 00 00
T199C 003:259.196    - DWT_FUNC[1]
T199C 003:259.212 - 0.948ms returns 1
T199C 003:259.236 JLINK_ReadMemU32(0xE0001048, 0x0001 Items, ...)
T199C 003:259.255   CPU_ReadMem(4 bytes @ 0xE0001048)
T199C 003:260.166   Data:  00 00 00 00
T199C 003:260.185    - DWT_FUNC[2]
T199C 003:260.201 - 0.971ms returns 1
T199C 003:260.224 JLINK_ReadMemU32(0xE0001058, 0x0001 Items, ...)
T199C 003:260.239   CPU_ReadMem(4 bytes @ 0xE0001058)
T199C 003:261.208   Data:  00 00 00 00
T199C 003:261.236    - DWT_FUNC[3]
T199C 003:261.252 - 1.032ms returns 1
T199C 003:261.333 JLINK_ReadReg(R0)
T199C 003:261.350 - 0.022ms returns 0x00000015
T199C 003:261.364 JLINK_ReadReg(R1)
T199C 003:261.376 - 0.017ms returns 0x20004820
T199C 003:261.395 JLINK_ReadReg(R2)
T199C 003:261.409 - 0.020ms returns 0x2000483C
T199C 003:261.423 JLINK_ReadReg(R3)
T199C 003:261.434 - 0.016ms returns 0x00002000
T199C 003:261.448 JLINK_ReadReg(R4)
T199C 003:261.459 - 0.016ms returns 0x20001870
T199C 003:261.472 JLINK_ReadReg(R5)
T199C 003:261.483 - 0.016ms returns 0x20001098
T199C 003:261.496 JLINK_ReadReg(R6)
T199C 003:261.507 - 0.016ms returns 0x00000000
T199C 003:261.521 JLINK_ReadReg(R7)
T199C 003:261.532 - 0.016ms returns 0x00000000
T199C 003:261.545 JLINK_ReadReg(R8)
T199C 003:261.556 - 0.017ms returns 0x20001870
T199C 003:261.569 JLINK_ReadReg(R9)
T199C 003:261.581 - 0.016ms returns 0x00000000
T199C 003:261.594 JLINK_ReadReg(R10)
T199C 003:261.605 - 0.016ms returns 0x00000000
T199C 003:261.618 JLINK_ReadReg(R11)
T199C 003:261.629 - 0.016ms returns 0x00000000
T199C 003:261.642 JLINK_ReadReg(R12)
T199C 003:261.654 - 0.016ms returns 0x200010D8
T199C 003:261.671 JLINK_ReadReg(R13 (SP))
T199C 003:261.682 - 0.017ms returns 0x20004820
T199C 003:261.696 JLINK_ReadReg(R14)
T199C 003:261.707 - 0.016ms returns 0x08001779
T199C 003:261.720 JLINK_ReadReg(R15 (PC))
T199C 003:261.731 - 0.017ms returns 0x08001864
T199C 003:261.745 JLINK_ReadReg(XPSR)
T199C 003:261.756 - 0.016ms returns 0x01000000
T199C 003:261.769 JLINK_ReadReg(MSP)
T199C 003:261.780 - 0.016ms returns 0x20004820
T199C 003:261.794 JLINK_ReadReg(PSP)
T199C 003:261.805 - 0.016ms returns 0x00000000
T199C 003:261.818 JLINK_ReadReg(CFBP)
T199C 003:261.829 - 0.016ms returns 0x04000000
T199C 003:261.842 JLINK_ReadReg(FPSCR)
T199C 003:267.507 - 5.677ms returns 0x03000000
T199C 003:267.531 JLINK_ReadReg(FPS0)
T199C 003:267.545 - 0.020ms returns 0x00000000
T199C 003:267.559 JLINK_ReadReg(FPS1)
T199C 003:267.571 - 0.017ms returns 0x00000000
T199C 003:267.585 JLINK_ReadReg(FPS2)
T199C 003:267.597 - 0.017ms returns 0x00000000
T199C 003:267.611 JLINK_ReadReg(FPS3)
T199C 003:267.622 - 0.017ms returns 0x00000000
T199C 003:267.640 JLINK_ReadReg(FPS4)
T199C 003:267.652 - 0.017ms returns 0x00000000
T199C 003:267.667 JLINK_ReadReg(FPS5)
T199C 003:267.679 - 0.017ms returns 0x00000000
T199C 003:267.693 JLINK_ReadReg(FPS6)
T199C 003:267.704 - 0.017ms returns 0x00000000
T199C 003:267.718 JLINK_ReadReg(FPS7)
T199C 003:267.730 - 0.017ms returns 0x00000000
T199C 003:267.743 JLINK_ReadReg(FPS8)
T199C 003:267.755 - 0.017ms returns 0x00000000
T199C 003:267.768 JLINK_ReadReg(FPS9)
T199C 003:267.784 - 0.021ms returns 0x00000000
T199C 003:267.797 JLINK_ReadReg(FPS10)
T199C 003:267.808 - 0.017ms returns 0x00000000
T199C 003:267.822 JLINK_ReadReg(FPS11)
T199C 003:267.833 - 0.017ms returns 0x00000000
T199C 003:267.847 JLINK_ReadReg(FPS12)
T199C 003:267.859 - 0.017ms returns 0x00000000
T199C 003:267.873 JLINK_ReadReg(FPS13)
T199C 003:267.885 - 0.017ms returns 0x00000000
T199C 003:267.898 JLINK_ReadReg(FPS14)
T199C 003:267.910 - 0.017ms returns 0x00000000
T199C 003:267.924 JLINK_ReadReg(FPS15)
T199C 003:267.935 - 0.017ms returns 0x00000000
T199C 003:267.949 JLINK_ReadReg(FPS16)
T199C 003:267.960 - 0.017ms returns 0x00000000
T199C 003:267.974 JLINK_ReadReg(FPS17)
T199C 003:267.986 - 0.017ms returns 0x00000000
T199C 003:268.002 JLINK_ReadReg(FPS18)
T199C 003:268.013 - 0.017ms returns 0x00000000
T199C 003:268.026 JLINK_ReadReg(FPS19)
T199C 003:268.038 - 0.017ms returns 0x00000000
T199C 003:268.052 JLINK_ReadReg(FPS20)
T199C 003:268.064 - 0.017ms returns 0x00000000
T199C 003:268.078 JLINK_ReadReg(FPS21)
T199C 003:268.089 - 0.017ms returns 0x00000000
T199C 003:268.103 JLINK_ReadReg(FPS22)
T199C 003:268.114 - 0.017ms returns 0x00000000
T199C 003:268.128 JLINK_ReadReg(FPS23)
T199C 003:268.139 - 0.017ms returns 0x00000000
T199C 003:268.153 JLINK_ReadReg(FPS24)
T199C 003:268.165 - 0.020ms returns 0x00000000
T199C 003:268.181 JLINK_ReadReg(FPS25)
T199C 003:268.193 - 0.017ms returns 0x00000000
T199C 003:268.207 JLINK_ReadReg(FPS26)
T199C 003:268.218 - 0.017ms returns 0x00000000
T199C 003:268.232 JLINK_ReadReg(FPS27)
T199C 003:268.243 - 0.017ms returns 0x00000000
T199C 003:268.262 JLINK_ReadReg(FPS28)
T199C 003:268.276 - 0.020ms returns 0x00000000
T199C 003:268.290 JLINK_ReadReg(FPS29)
T199C 003:268.302 - 0.018ms returns 0x00000000
T199C 003:268.316 JLINK_ReadReg(FPS30)
T199C 003:268.328 - 0.017ms returns 0x00000000
T199C 003:268.341 JLINK_ReadReg(FPS31)
T199C 003:268.353 - 0.017ms returns 0x00000000
T40F8 003:268.448   JLINK_ReadMemEx(0x40003800, 0x0020 Bytes, ..., Flags = 0x02000004)
T40F8 003:268.486   CPU_ReadMem(32 bytes @ 0x40003800)
T40F8 003:269.702   Data:  00 00 00 00 00 00 00 00 00 00 00 00 00 00 00 00 ...
T40F8 003:269.726 - 1.285ms returns 0x20
T40F8 003:269.746   JLINK_ReadMemEx(0x40003820, 0x0004 Bytes, ..., Flags = 0x02000004)
T40F8 003:269.768   CPU_ReadMem(4 bytes @ 0x40003820)
T40F8 003:270.674   Data:  00 00 00 00
T40F8 003:270.687 - 0.945ms returns 0x04
T40F8 003:270.947   JLINK_ReadMemEx(0x08001864, 0x003C Bytes, ..., Flags = 0x02000000)
T40F8 003:270.963   CPU_ReadMem(128 bytes @ 0x08001840)
T40F8 003:273.021    -- Updating C cache (128 bytes @ 0x08001840)
T40F8 003:273.044    -- Read from C cache (60 bytes @ 0x08001864)
T40F8 003:273.061   Data:  AB BE 08 B1 00 20 1C BD 20 46 1C BD 70 47 70 47 ...
T40F8 003:273.077 - 2.135ms returns 0x3C
T40F8 003:273.094   JLINK_ReadMemEx(0x08001864, 0x0002 Bytes, ..., Flags = 0x02000000)
T40F8 003:273.112    -- Read from C cache (2 bytes @ 0x08001864)
T40F8 003:273.128   Data:  AB BE
T40F8 003:273.144 - 0.055ms returns 0x02
T40F8 003:273.159   JLINK_ReadMemEx(0x08001866, 0x0002 Bytes, ..., Flags = 0x02000000)
T40F8 003:273.175    -- Read from C cache (2 bytes @ 0x08001866)
T40F8 003:273.191   Data:  08 B1
T40F8 003:273.207 - 0.054ms returns 0x02
T40F8 003:273.232   JLINK_ReadMemEx(0x08001866, 0x0002 Bytes, ..., Flags = 0x02000000)
T40F8 003:273.249    -- Read from C cache (2 bytes @ 0x08001866)
T40F8 003:273.265   Data:  08 B1
T40F8 003:273.281 - 0.054ms returns 0x02
T40F8 003:273.294   JLINK_ReadMemEx(0x08001868, 0x003C Bytes, ..., Flags = 0x02000000)
T40F8 003:273.311    -- Read from C cache (60 bytes @ 0x08001868)
T40F8 003:273.328   Data:  00 20 1C BD 20 46 1C BD 70 47 70 47 10 B5 01 28 ...
T40F8 003:273.344 - 0.055ms returns 0x3C
T40F8 003:273.357   JLINK_ReadMemEx(0x08001868, 0x0002 Bytes, ..., Flags = 0x02000000)
T40F8 003:273.374    -- Read from C cache (2 bytes @ 0x08001868)
T40F8 003:273.390   Data:  00 20
T40F8 003:273.405 - 0.054ms returns 0x02
T40F8 003:273.450   JLINK_ReadMemEx(0x08001868, 0x003C Bytes, ..., Flags = 0x02000000)
T40F8 003:273.467    -- Read from C cache (60 bytes @ 0x08001868)
T40F8 003:273.484   Data:  00 20 1C BD 20 46 1C BD 70 47 70 47 10 B5 01 28 ...
T40F8 003:273.499 - 0.055ms returns 0x3C
T40F8 003:273.513   JLINK_ReadMemEx(0x08001868, 0x0002 Bytes, ..., Flags = 0x02000000)
T40F8 003:273.529    -- Read from C cache (2 bytes @ 0x08001868)
T40F8 003:273.545   Data:  00 20
T40F8 003:273.561 - 0.053ms returns 0x02
T40F8 003:273.574   JLINK_ReadMemEx(0x0800186A, 0x0002 Bytes, ..., Flags = 0x02000000)
T40F8 003:273.590    -- Read from C cache (2 bytes @ 0x0800186A)
T40F8 003:273.606   Data:  1C BD
T40F8 003:273.622 - 0.053ms returns 0x02
T40F8 003:273.639   JLINK_ReadMemEx(0x0800186A, 0x0002 Bytes, ..., Flags = 0x02000000)
T40F8 003:273.656    -- Read from C cache (2 bytes @ 0x0800186A)
T40F8 003:273.672   Data:  1C BD
T40F8 003:273.687 - 0.053ms returns 0x02
T40F8 003:273.701   JLINK_ReadMemEx(0x0800186C, 0x003C Bytes, ..., Flags = 0x02000000)
T40F8 003:273.717    -- Read from C cache (60 bytes @ 0x0800186C)
T40F8 003:273.734   Data:  20 46 1C BD 70 47 70 47 10 B5 01 28 05 D0 00 21 ...
T40F8 003:273.749 - 0.054ms returns 0x3C
T40F8 003:273.763   JLINK_ReadMemEx(0x0800186C, 0x0002 Bytes, ..., Flags = 0x02000000)
T40F8 003:273.784    -- Read from C cache (2 bytes @ 0x0800186C)
T40F8 003:273.800   Data:  20 46
T40F8 003:273.816 - 0.058ms returns 0x02
T199C 004:103.976   JLINK_ReadMemEx(0x08001864, 0x0002 Bytes, ..., Flags = 0x02000000)
T199C 004:104.010    -- Read from C cache (2 bytes @ 0x08001864)
T199C 004:104.021   Data:  AB BE
T199C 004:104.089 - 0.118ms returns 0x02
T199C 004:104.105 JLINK_WriteReg(R15 (PC), 0x08001866)
T199C 004:104.118 - 0.018ms returns 0x00
T199C 004:104.131 JLINK_Go()
T199C 004:105.055   CPU_ReadMem(4 bytes @ 0xE0001000)
T199C 004:105.954   CPU_WriteMem(4 bytes @ 0xE0002008)
T199C 004:109.060 - 4.938ms
T199C 004:210.071 JLINK_IsHalted()
T199C 004:211.053 - 0.998ms returns FALSE
T199C 004:311.559 JLINK_IsHalted()
T199C 004:312.593 - 1.051ms returns FALSE
T199C 004:413.381 JLINK_IsHalted()
T199C 004:414.315 - 0.949ms returns FALSE
T199C 004:514.428 JLINK_IsHalted()
T199C 004:515.440 - 1.029ms returns FALSE
T199C 004:616.125 JLINK_IsHalted()
T199C 004:617.131 - 1.016ms returns FALSE
T199C 004:717.265 JLINK_ReadMemU32(0xE0001004, 0x0001 Items, ...)
T199C 004:717.336   CPU_ReadMem(4 bytes @ 0xE0001004)
T199C 004:718.906   Data:  C0 1B 28 06
T199C 004:718.946    - DWT_CYCCNT
T199C 004:718.961 - 1.704ms returns 1
T40F8 004:720.738   JLINK_ReadMemEx(0x40003800, 0x0020 Bytes, ..., Flags = 0x02000004)
T40F8 004:720.777   CPU_ReadMem(32 bytes @ 0x40003800)
T40F8 004:721.970   Data:  54 03 00 00 00 00 00 00 02 00 00 00 00 00 00 00 ...
T40F8 004:721.998 - 1.268ms returns 0x20
T40F8 004:722.021   JLINK_ReadMemEx(0x40003820, 0x0004 Bytes, ..., Flags = 0x02000004)
T40F8 004:722.045   CPU_ReadMem(4 bytes @ 0x40003820)
T40F8 004:722.919   Data:  02 00 00 00
T40F8 004:722.947 - 0.933ms returns 0x04
T199C 004:735.941 JLINK_IsHalted()
T199C 004:736.896 - 0.962ms returns FALSE
T199C 004:836.991 JLINK_IsHalted()
T199C 004:838.083 - 1.109ms returns FALSE
T199C 004:938.972 JLINK_IsHalted()
T199C 004:940.107 - 1.151ms returns FALSE
T199C 005:041.158 JLINK_IsHalted()
T199C 005:043.446 - 2.336ms returns FALSE
T199C 005:144.510 JLINK_IsHalted()
T199C 005:145.474 - 0.988ms returns FALSE
T199C 005:246.405 JLINK_ReadMemU32(0xE0001004, 0x0001 Items, ...)
T199C 005:246.446   Data:  C0 1B 28 06
T199C 005:246.457    - DWT_CYCCNT
T199C 005:246.467 - 0.065ms returns 1
T40F8 005:247.256   JLINK_ReadMemEx(0x40003800, 0x0020 Bytes, ..., Flags = 0x02000004)
T40F8 005:247.282   CPU_ReadMem(32 bytes @ 0x40003800)
T40F8 005:248.467   Data:  54 03 00 00 00 00 00 00 02 00 00 00 00 00 00 00 ...
T40F8 005:248.488 - 1.238ms returns 0x20
T40F8 005:248.507   JLINK_ReadMemEx(0x40003820, 0x0004 Bytes, ..., Flags = 0x02000004)
T40F8 005:248.526   CPU_ReadMem(4 bytes @ 0x40003820)
T40F8 005:249.443   Data:  02 00 00 00
T40F8 005:249.470 - 0.969ms returns 0x04
T199C 005:249.834 JLINK_IsHalted()
T199C 005:250.787 - 0.962ms returns FALSE
T199C 005:351.374 JLINK_IsHalted()
T199C 005:352.344 - 0.986ms returns FALSE
T199C 005:452.491 JLINK_IsHalted()
T199C 005:453.468 - 0.993ms returns FALSE
T199C 005:553.913 JLINK_IsHalted()
T199C 005:555.031 - 1.134ms returns FALSE
T199C 005:655.814 JLINK_IsHalted()
T199C 005:656.848 - 1.060ms returns FALSE
T199C 005:757.979 JLINK_IsHalted()
T199C 005:759.061 - 1.099ms returns FALSE
T199C 005:859.529 JLINK_ReadMemU32(0xE0001004, 0x0001 Items, ...)
T199C 005:859.581   Data:  C0 1B 28 06
T199C 005:859.599    - DWT_CYCCNT
T199C 005:859.614 - 0.090ms returns 1
T40F8 005:859.704   JLINK_ReadMemEx(0x40003800, 0x0020 Bytes, ..., Flags = 0x02000004)
T40F8 005:859.744   CPU_ReadMem(32 bytes @ 0x40003800)
T40F8 005:860.969   Data:  54 03 00 00 00 00 00 00 02 00 00 00 00 00 00 00 ...
T40F8 005:860.996 - 1.299ms returns 0x20
T40F8 005:861.015   JLINK_ReadMemEx(0x40003820, 0x0004 Bytes, ..., Flags = 0x02000004)
T40F8 005:861.037   CPU_ReadMem(4 bytes @ 0x40003820)
T40F8 005:861.916   Data:  02 00 00 00
T40F8 005:861.943 - 0.934ms returns 0x04
T199C 005:862.281 JLINK_IsHalted()
T199C 005:863.163 - 0.892ms returns FALSE
T199C 005:963.301 JLINK_IsHalted()
T199C 005:964.290 - 1.004ms returns FALSE
T199C 006:065.175 JLINK_IsHalted()
T199C 006:066.156 - 0.995ms returns FALSE
T199C 006:166.841 JLINK_IsHalted()
T199C 006:167.792 - 0.965ms returns FALSE
T199C 006:267.920 JLINK_IsHalted()
T199C 006:269.298 - 1.394ms returns FALSE
T199C 006:370.449 JLINK_IsHalted()
T199C 006:371.442 - 1.014ms returns FALSE
T199C 006:472.053 JLINK_ReadMemU32(0xE0001004, 0x0001 Items, ...)
T199C 006:472.109   Data:  C0 1B 28 06
T199C 006:472.127    - DWT_CYCCNT
T199C 006:472.142 - 0.094ms returns 1
T40F8 006:472.222   JLINK_ReadMemEx(0x40003800, 0x0020 Bytes, ..., Flags = 0x02000004)
T40F8 006:472.262   CPU_ReadMem(32 bytes @ 0x40003800)
T40F8 006:473.464   Data:  54 03 00 00 00 00 00 00 02 00 00 00 00 00 00 00 ...
T40F8 006:473.584 - 1.369ms returns 0x20
T40F8 006:473.605   JLINK_ReadMemEx(0x40003820, 0x0004 Bytes, ..., Flags = 0x02000004)
T40F8 006:473.630   CPU_ReadMem(4 bytes @ 0x40003820)
T40F8 006:474.542   Data:  02 00 00 00
T40F8 006:474.572 - 0.973ms returns 0x04
T199C 006:475.001 JLINK_IsHalted()
T199C 006:475.902 - 0.911ms returns FALSE
T199C 006:576.470 JLINK_IsHalted()
T199C 006:577.440 - 0.985ms returns FALSE
T199C 006:678.519 JLINK_IsHalted()
T199C 006:679.531 - 1.022ms returns FALSE
T199C 006:780.598 JLINK_IsHalted()
T199C 006:781.530 - 0.947ms returns FALSE
T199C 006:881.631 JLINK_IsHalted()
T199C 006:882.544 - 0.923ms returns FALSE
T199C 006:983.099 JLINK_ReadMemU32(0xE0001004, 0x0001 Items, ...)
T199C 006:983.150   Data:  C0 1B 28 06
T199C 006:983.169    - DWT_CYCCNT
T199C 006:983.185 - 0.092ms returns 1
T40F8 006:983.280   JLINK_ReadMemEx(0x40003800, 0x0020 Bytes, ..., Flags = 0x02000004)
T40F8 006:983.319   CPU_ReadMem(32 bytes @ 0x40003800)
T40F8 006:984.580   Data:  54 03 00 00 00 00 00 00 02 00 00 00 00 00 00 00 ...
T40F8 006:984.606 - 1.333ms returns 0x20
T40F8 006:984.626   JLINK_ReadMemEx(0x40003820, 0x0004 Bytes, ..., Flags = 0x02000004)
T40F8 006:984.649   CPU_ReadMem(4 bytes @ 0x40003820)
T40F8 006:985.550   Data:  02 00 00 00
T40F8 006:985.569 - 0.948ms returns 0x04
T199C 006:985.933 JLINK_IsHalted()
T199C 006:986.769 - 0.850ms returns FALSE
T199C 007:087.922 JLINK_IsHalted()
T199C 007:088.908 - 1.005ms returns FALSE
T199C 007:189.866 JLINK_IsHalted()
T199C 007:190.781 - 0.931ms returns FALSE
T199C 007:290.944 JLINK_IsHalted()
T199C 007:291.910 - 0.981ms returns FALSE
T199C 007:392.443 JLINK_IsHalted()
T199C 007:393.600 - 1.173ms returns FALSE
T199C 007:493.679 JLINK_IsHalted()
T199C 007:494.657 - 0.985ms returns FALSE
T199C 007:595.074 JLINK_ReadMemU32(0xE0001004, 0x0001 Items, ...)
T199C 007:595.124   Data:  C0 1B 28 06
T199C 007:595.143    - DWT_CYCCNT
T199C 007:595.159 - 0.091ms returns 1
T40F8 007:634.176   JLINK_ReadMemEx(0x40003800, 0x0020 Bytes, ..., Flags = 0x02000004)
T40F8 007:634.212   CPU_ReadMem(32 bytes @ 0x40003800)
T40F8 007:635.486   Data:  54 03 00 00 00 00 00 00 02 00 00 00 00 00 00 00 ...
T40F8 007:635.505 - 1.335ms returns 0x20
T40F8 007:635.523   JLINK_ReadMemEx(0x40003820, 0x0004 Bytes, ..., Flags = 0x02000004)
T40F8 007:635.543   CPU_ReadMem(4 bytes @ 0x40003820)
T40F8 007:636.553   Data:  02 00 00 00
T40F8 007:636.580 - 1.062ms returns 0x04
T199C 007:636.927 JLINK_IsHalted()
T199C 007:637.966 - 1.054ms returns FALSE
T199C 007:738.083 JLINK_IsHalted()
T199C 007:739.294 - 1.229ms returns FALSE
T199C 007:839.868 JLINK_IsHalted()
T199C 007:841.034 - 1.182ms returns FALSE
T199C 007:941.635 JLINK_IsHalted()
T199C 007:942.761 - 1.145ms returns FALSE
T199C 008:043.896 JLINK_IsHalted()
T199C 008:045.096 - 1.216ms returns FALSE
T199C 008:145.710 JLINK_ReadMemU32(0xE0001004, 0x0001 Items, ...)
T199C 008:145.755   Data:  C0 1B 28 06
T199C 008:145.768    - DWT_CYCCNT
T199C 008:145.778 - 0.071ms returns 1
T40F8 008:146.456   JLINK_ReadMemEx(0x40003800, 0x0020 Bytes, ..., Flags = 0x02000004)
T40F8 008:146.481   CPU_ReadMem(32 bytes @ 0x40003800)
T40F8 008:147.756   Data:  54 03 00 00 00 00 00 00 02 00 00 00 00 00 00 00 ...
T40F8 008:147.779 - 1.329ms returns 0x20
T40F8 008:147.798   JLINK_ReadMemEx(0x40003820, 0x0004 Bytes, ..., Flags = 0x02000004)
T40F8 008:147.819   CPU_ReadMem(4 bytes @ 0x40003820)
T40F8 008:148.741   Data:  02 00 00 00
T40F8 008:148.754 - 0.960ms returns 0x04
T199C 008:149.012 JLINK_IsHalted()
T199C 008:149.896 - 0.893ms returns FALSE
T199C 008:249.973 JLINK_IsHalted()
T199C 008:250.904 - 0.949ms returns FALSE
T199C 008:351.995 JLINK_IsHalted()
T199C 008:352.913 - 0.932ms returns FALSE
T199C 008:454.032 JLINK_IsHalted()
T199C 008:455.053 - 1.038ms returns FALSE
T199C 008:555.146 JLINK_IsHalted()
T199C 008:556.046 - 0.916ms returns FALSE
T199C 008:656.998 JLINK_ReadMemU32(0xE0001004, 0x0001 Items, ...)
T199C 008:657.048   Data:  C0 1B 28 06
T199C 008:657.068    - DWT_CYCCNT
T199C 008:657.084 - 0.092ms returns 1
T40F8 008:657.175   JLINK_ReadMemEx(0x40003800, 0x0020 Bytes, ..., Flags = 0x02000004)
T40F8 008:657.216   CPU_ReadMem(32 bytes @ 0x40003800)
T40F8 008:658.491   Data:  54 03 00 00 00 00 00 00 02 00 00 00 00 00 00 00 ...
T40F8 008:658.518 - 1.349ms returns 0x20
T40F8 008:658.538   JLINK_ReadMemEx(0x40003820, 0x0004 Bytes, ..., Flags = 0x02000004)
T40F8 008:658.559   CPU_ReadMem(4 bytes @ 0x40003820)
T40F8 008:659.442   Data:  02 00 00 00
T40F8 008:659.472 - 0.941ms returns 0x04
T199C 008:659.903 JLINK_IsHalted()
T199C 008:660.790 - 0.896ms returns FALSE
T199C 008:760.896 JLINK_IsHalted()
T199C 008:761.965 - 1.085ms returns FALSE
T199C 008:862.276 JLINK_IsHalted()
T199C 008:863.155 - 0.894ms returns FALSE
T199C 008:963.288 JLINK_IsHalted()
T199C 008:964.665 - 1.392ms returns FALSE
T199C 009:064.770 JLINK_IsHalted()
T199C 009:065.656 - 0.901ms returns FALSE
T199C 009:165.811 JLINK_IsHalted()
T199C 009:166.806 - 1.012ms returns FALSE
T199C 009:266.903 JLINK_ReadMemU32(0xE0001004, 0x0001 Items, ...)
T199C 009:266.971   Data:  C0 1B 28 06
T199C 009:266.992    - DWT_CYCCNT
T199C 009:267.008 - 0.113ms returns 1
T40F8 009:267.114   JLINK_ReadMemEx(0x40003800, 0x0020 Bytes, ..., Flags = 0x02000004)
T40F8 009:267.153   CPU_ReadMem(32 bytes @ 0x40003800)
T40F8 009:268.490   Data:  54 03 00 00 00 00 00 00 02 00 00 00 00 00 00 00 ...
T40F8 009:268.521 - 1.415ms returns 0x20
T40F8 009:268.543   JLINK_ReadMemEx(0x40003820, 0x0004 Bytes, ..., Flags = 0x02000004)
T40F8 009:268.565   CPU_ReadMem(4 bytes @ 0x40003820)
T40F8 009:269.441   Data:  02 00 00 00
T40F8 009:269.462 - 0.925ms returns 0x04
T199C 009:269.867 JLINK_IsHalted()
T199C 009:270.793 - 0.943ms returns FALSE
T199C 009:371.405 JLINK_IsHalted()
T199C 009:372.442 - 1.052ms returns FALSE
T199C 009:472.602 JLINK_IsHalted()
T199C 009:473.524 - 0.933ms returns FALSE
T199C 009:573.749 JLINK_IsHalted()
T199C 009:574.774 - 1.041ms returns FALSE
T40F8 009:584.947   JLINK_SetBPEx(Addr = 0x08007952, Type = 0xFFFFFFF2)
T40F8 009:584.973   CPU is running
T40F8 009:584.992   CPU is running
T40F8 009:585.011   CPU_WriteMem(4 bytes @ 0xE0002000)
T40F8 009:585.954   CPU is running
T40F8 009:585.983   CPU_WriteMem(4 bytes @ 0xE0002008)
T40F8 009:586.963 - 2.034ms returns 0x00000002
T199C 009:674.869 JLINK_IsHalted()
T199C 009:679.142 - 4.288ms returns TRUE
T199C 009:679.172 JLINK_Halt()
T199C 009:679.183 - 0.016ms returns 0x00
T199C 009:679.196 JLINK_IsHalted()
T199C 009:679.207 - 0.015ms returns TRUE
T199C 009:679.219 JLINK_IsHalted()
T199C 009:679.229 - 0.015ms returns TRUE
T199C 009:679.242 JLINK_IsHalted()
T199C 009:679.252 - 0.015ms returns TRUE
T199C 009:679.268 JLINK_ReadReg(R15 (PC))
T199C 009:679.283 - 0.019ms returns 0x08007952
T199C 009:679.296 JLINK_ReadReg(XPSR)
T199C 009:679.308 - 0.018ms returns 0x81000000
T199C 009:679.326 JLINK_ClrBPEx(BPHandle = 0x00000002)
T199C 009:679.339 - 0.018ms returns 0x00
T199C 009:679.356 JLINK_ReadMemU32(0xE000ED30, 0x0001 Items, ...)
T199C 009:679.375   CPU_ReadMem(4 bytes @ 0xE000ED30)
T199C 009:680.341   Data:  03 00 00 00
T199C 009:680.371 - 1.018ms returns 1
T199C 009:680.384 JLINK_ReadMemU32(0xE0001028, 0x0001 Items, ...)
T199C 009:680.399   CPU_ReadMem(4 bytes @ 0xE0001028)
T199C 009:681.336   Data:  00 00 00 00
T199C 009:681.364    - DWT_FUNC[0]
T199C 009:681.381 - 1.004ms returns 1
T199C 009:681.399 JLINK_ReadMemU32(0xE0001038, 0x0001 Items, ...)
T199C 009:681.420   CPU_ReadMem(4 bytes @ 0xE0001038)
T199C 009:682.296   Data:  00 02 00 00
T199C 009:682.314    - DWT_FUNC[1]
T199C 009:682.323 - 0.927ms returns 1
T199C 009:682.338 JLINK_ReadMemU32(0xE0001048, 0x0001 Items, ...)
T199C 009:682.352   CPU_ReadMem(4 bytes @ 0xE0001048)
T199C 009:683.299   Data:  00 00 00 00
T199C 009:683.322    - DWT_FUNC[2]
T199C 009:683.335 - 1.000ms returns 1
T199C 009:683.348 JLINK_ReadMemU32(0xE0001058, 0x0001 Items, ...)
T199C 009:683.362   CPU_ReadMem(4 bytes @ 0xE0001058)
T199C 009:684.286   Data:  00 00 00 00
T199C 009:684.305    - DWT_FUNC[3]
T199C 009:684.317 - 0.973ms returns 1
T199C 009:684.373 JLINK_ReadReg(R0)
T199C 009:684.388 - 0.020ms returns 0x00000000
T199C 009:684.401 JLINK_ReadReg(R1)
T199C 009:684.412 - 0.016ms returns 0xC2200000
T199C 009:684.424 JLINK_ReadReg(R2)
T199C 009:684.435 - 0.015ms returns 0x200016D8
T199C 009:684.447 JLINK_ReadReg(R3)
T199C 009:684.458 - 0.015ms returns 0x200016E8
T199C 009:684.470 JLINK_ReadReg(R4)
T199C 009:684.481 - 0.015ms returns 0x00000000
T199C 009:684.494 JLINK_ReadReg(R5)
T199C 009:684.504 - 0.015ms returns 0x20001098
T199C 009:684.517 JLINK_ReadReg(R6)
T199C 009:684.527 - 0.015ms returns 0x00000000
T199C 009:684.540 JLINK_ReadReg(R7)
T199C 009:684.550 - 0.015ms returns 0x00000000
T199C 009:684.563 JLINK_ReadReg(R8)
T199C 009:684.574 - 0.016ms returns 0x00000000
T199C 009:684.587 JLINK_ReadReg(R9)
T199C 009:684.598 - 0.015ms returns 0x00000000
T199C 009:684.610 JLINK_ReadReg(R10)
T199C 009:684.621 - 0.015ms returns 0x08010404
T199C 009:684.633 JLINK_ReadReg(R11)
T199C 009:684.644 - 0.015ms returns 0x00000000
T199C 009:684.656 JLINK_ReadReg(R12)
T199C 009:684.667 - 0.015ms returns 0x20001708
T199C 009:684.680 JLINK_ReadReg(R13 (SP))
T199C 009:684.690 - 0.016ms returns 0x20004848
T199C 009:684.703 JLINK_ReadReg(R14)
T199C 009:684.714 - 0.016ms returns 0x08007953
T199C 009:684.726 JLINK_ReadReg(R15 (PC))
T199C 009:684.737 - 0.016ms returns 0x08007952
T199C 009:684.749 JLINK_ReadReg(XPSR)
T199C 009:684.760 - 0.015ms returns 0x81000000
T199C 009:684.772 JLINK_ReadReg(MSP)
T199C 009:684.783 - 0.015ms returns 0x20004848
T199C 009:684.795 JLINK_ReadReg(PSP)
T199C 009:684.806 - 0.015ms returns 0x00000000
T199C 009:684.819 JLINK_ReadReg(CFBP)
T199C 009:684.829 - 0.016ms returns 0x04000000
T199C 009:684.842 JLINK_ReadReg(FPSCR)
T199C 009:690.721 - 5.894ms returns 0x63000010
T199C 009:690.748 JLINK_ReadReg(FPS0)
T199C 009:690.763 - 0.019ms returns 0x41F00000
T199C 009:690.776 JLINK_ReadReg(FPS1)
T199C 009:690.787 - 0.016ms returns 0x405E8000
T199C 009:690.799 JLINK_ReadReg(FPS2)
T199C 009:690.810 - 0.015ms returns 0x41F00000
T199C 009:690.822 JLINK_ReadReg(FPS3)
T199C 009:690.833 - 0.015ms returns 0x00000000
T199C 009:690.845 JLINK_ReadReg(FPS4)
T199C 009:690.856 - 0.015ms returns 0x42840000
T199C 009:690.868 JLINK_ReadReg(FPS5)
T199C 009:690.879 - 0.015ms returns 0x3FC99999
T199C 009:690.891 JLINK_ReadReg(FPS6)
T199C 009:690.902 - 0.015ms returns 0x41900000
T199C 009:690.914 JLINK_ReadReg(FPS7)
T199C 009:690.924 - 0.015ms returns 0x3FC820C0
T199C 009:690.937 JLINK_ReadReg(FPS8)
T199C 009:690.947 - 0.015ms returns 0x00000000
T199C 009:690.960 JLINK_ReadReg(FPS9)
T199C 009:690.970 - 0.015ms returns 0x00000000
T199C 009:690.982 JLINK_ReadReg(FPS10)
T199C 009:690.993 - 0.015ms returns 0x00000000
T199C 009:691.005 JLINK_ReadReg(FPS11)
T199C 009:691.016 - 0.015ms returns 0x00000000
T199C 009:691.028 JLINK_ReadReg(FPS12)
T199C 009:691.039 - 0.016ms returns 0x00000000
T199C 009:691.051 JLINK_ReadReg(FPS13)
T199C 009:691.062 - 0.015ms returns 0x00000000
T199C 009:691.074 JLINK_ReadReg(FPS14)
T199C 009:691.085 - 0.015ms returns 0x00000000
T199C 009:691.097 JLINK_ReadReg(FPS15)
T199C 009:691.107 - 0.015ms returns 0x00000000
T199C 009:691.119 JLINK_ReadReg(FPS16)
T199C 009:691.130 - 0.015ms returns 0x00000000
T199C 009:691.142 JLINK_ReadReg(FPS17)
T199C 009:691.153 - 0.015ms returns 0x00000000
T199C 009:691.165 JLINK_ReadReg(FPS18)
T199C 009:691.175 - 0.015ms returns 0x00000000
T199C 009:691.188 JLINK_ReadReg(FPS19)
T199C 009:691.198 - 0.020ms returns 0x00000000
T199C 009:691.215 JLINK_ReadReg(FPS20)
T199C 009:691.226 - 0.020ms returns 0x00000000
T199C 009:691.246 JLINK_ReadReg(FPS21)
T199C 009:691.256 - 0.015ms returns 0x00000000
T199C 009:691.269 JLINK_ReadReg(FPS22)
T199C 009:691.279 - 0.015ms returns 0x00000000
T199C 009:691.292 JLINK_ReadReg(FPS23)
T199C 009:691.302 - 0.015ms returns 0x00000000
T199C 009:691.314 JLINK_ReadReg(FPS24)
T199C 009:691.325 - 0.015ms returns 0x00000000
T199C 009:691.337 JLINK_ReadReg(FPS25)
T199C 009:691.348 - 0.015ms returns 0x00000000
T199C 009:691.360 JLINK_ReadReg(FPS26)
T199C 009:691.371 - 0.015ms returns 0x00000000
T199C 009:691.383 JLINK_ReadReg(FPS27)
T199C 009:691.393 - 0.015ms returns 0x00000000
T199C 009:691.405 JLINK_ReadReg(FPS28)
T199C 009:691.416 - 0.015ms returns 0x00000000
T199C 009:691.428 JLINK_ReadReg(FPS29)
T199C 009:691.439 - 0.015ms returns 0x00000000
T199C 009:691.451 JLINK_ReadReg(FPS30)
T199C 009:691.461 - 0.015ms returns 0x00000000
T199C 009:691.474 JLINK_ReadReg(FPS31)
T199C 009:691.484 - 0.015ms returns 0x00000000
T40F8 009:691.589   JLINK_ReadMemEx(0x40003800, 0x0020 Bytes, ..., Flags = 0x02000004)
T40F8 009:691.615   CPU_ReadMem(32 bytes @ 0x40003800)
T40F8 009:692.839   Data:  54 03 00 00 00 00 00 00 02 00 00 00 00 00 00 00 ...
T40F8 009:692.856 - 1.272ms returns 0x20
T40F8 009:692.869   JLINK_ReadMemEx(0x40003820, 0x0004 Bytes, ..., Flags = 0x02000004)
T40F8 009:692.884   CPU_ReadMem(4 bytes @ 0x40003820)
T40F8 009:693.787   Data:  02 00 00 00
T40F8 009:693.809 - 0.946ms returns 0x04
T40F8 009:694.100   JLINK_ReadMemEx(0x08007952, 0x0002 Bytes, ..., Flags = 0x02000000)
T40F8 009:694.127   CPU_ReadMem(64 bytes @ 0x08007940)
T40F8 009:695.743    -- Updating C cache (64 bytes @ 0x08007940)
T40F8 009:695.773    -- Read from C cache (2 bytes @ 0x08007952)
T40F8 009:695.790   Data:  00 F0
T40F8 009:695.806 - 1.712ms returns 0x02
